Freq.	V(vout)
Step Information: G=15.625m  (Run: 1/7)
2.00000000000000e+001	(2.86275950845803e+001dB,6.72491429779755e+001°)
2.04658598456151e+001	(2.87911304697437e+001dB,6.63081403780168e+001°)
2.09425709610180e+001	(2.89509432287248e+001dB,6.53613458241182e+001°)
2.14303861047521e+001	(2.91070020137917e+001dB,6.44095072889821e+001°)
2.19295639228637e+001	(2.92592814576807e+001dB,6.34533790053135e+001°)
2.24403690860393e+001	(2.94077621846255e+001dB,6.24937190724952e+001°)
2.29630724299377e+001	(2.95524307959911e+001dB,6.15312870809717e+001°)
2.34979510987906e+001	(2.96932798310120e+001dB,6.05668417673880e+001°)
2.40452886923483e+001	(2.98303077033027e+001dB,5.96011387130493e+001°)
2.46053754162476e+001	(2.99635186139692e+001dB,5.86349280976833e+001°)
2.51785082358833e+001	(3.00929224422963e+001dB,5.76689525198065e+001°)
2.57649910338627e+001	(3.02185346151218e+001dB,5.67039448942334e+001°)
2.63651347711281e+001	(3.03403759561249e+001dB,5.57406264364352e+001°)
2.69792576518331e+001	(3.04584725163619e+001dB,5.47797047425638e+001°)
2.76076852920577e+001	(3.05728553874708e+001dB,5.38218719730253e+001°)
2.82507508924551e+001	(3.06835604990359e+001dB,5.28678031465230e+001°)
2.89087954149185e+001	(3.07906284016630e+001dB,5.19181545505093e+001°)
2.95821677633641e+001	(3.08941040373537e+001dB,5.09735622730014e+001°)
3.02712249687242e+001	(3.09940364987951e+001dB,5.00346408597356e+001°)
3.09763323782496e+001	(3.10904787791918e+001dB,4.91019820996688e+001°)
3.16978638492223e+001	(3.11834875142643e+001dB,4.81761539408982e+001°)
3.24362019471786e+001	(3.12731227180282e+001dB,4.72576995381609e+001°)
3.31917381487512e+001	(3.13594475139376e+001dB,4.63471364322026e+001°)
3.39648730492349e+001	(3.14425278629467e+001dB,4.54449558604771e+001°)
3.47560165749875e+001	(3.15224322899947e+001dB,4.45516221978544e+001°)
3.55655882007784e+001	(3.15992316103705e+001dB,4.36675725252812e+001°)
3.63940171721997e+001	(3.16729986573521e+001dB,4.27932163236493e+001°)
3.72417427332573e+001	(3.17438080124507e+001dB,4.19289352894971e+001°)
3.81092143592649e+001	(3.18117357395194e+001dB,4.10750832685834e+001°)
3.89968919951609e+001	(3.18768591239105e+001dB,4.02319863028409e+001°)
3.99052462993776e+001	(3.19392564177850e+001dB,3.93999427857380e+001°)
4.08347588933906e+001	(3.19990065925987e+001dB,3.85792237206444e+001°)
4.17859226170808e+001	(3.20561890996978e+001dB,3.77700730764195e+001°)
4.27592417900446e+001	(3.21108836398762e+001dB,3.69727082341125e+001°)
4.37552324789910e+001	(3.21631699426514e+001dB,3.61873205183820e+001°)
4.47744227713668e+001	(3.22131275559274e+001dB,3.54140758070176e+001°)
4.58173530553554e+001	(3.22608356466218e+001dB,3.46531152117654e+001°)
4.68845763063984e+001	(3.23063728127418e+001dB,3.39045558235294e+001°)
4.79766583803898e+001	(3.23498169072983e+001dB,3.31684915149448e+001°)
4.90941783137006e+001	(3.23912448743645e+001dB,3.24449937932877e+001°)
5.02377286301916e+001	(3.24307325974857e+001dB,3.17341126967061e+001°)
5.14079156553772e+001	(3.24683547605669e+001dB,3.10358777268271e+001°)
5.26053598379076e+001	(3.25041847212745e+001dB,3.03502988109082e+001°)
5.38306960785383e+001	(3.25382943969096e+001dB,2.96773672868621e+001°)
5.50845740667633e+001	(3.25707541626294e+001dB,2.90170569046899e+001°)
5.63676586252890e+001	(3.26016327618214e+001dB,2.83693248380990e+001°)
5.76806300625321e+001	(3.26309972283637e+001dB,2.77341127003663e+001°)
5.90241845333277e+001	(3.26589128204439e+001dB,2.71113475588213e+001°)
6.03990344080403e+001	(3.26854429655486e+001dB,2.65009429426686e+001°)
6.18059086502718e+001	(3.27106492161859e+001dB,2.59027998392385e+001°)
6.32455532033675e+001	(3.27345912158575e+001dB,2.53168076741477e+001°)
6.47187313859256e+001	(3.27573266747590e+001dB,2.47428452712519e+001°)
6.62262242965182e+001	(3.27789113546546e+001dB,2.41807817886948e+001°)
6.77688312278404e+001	(3.27993990623494e+001dB,2.36304776277741e+001°)
6.93473700905062e+001	(3.28188416511632e+001dB,2.30917853117693e+001°)
7.09626778467150e+001	(3.28372890297968e+001dB,2.25645503322946e+001°)
7.26156109540202e+001	(3.28547891779805e+001dB,2.20486119611475e+001°)
7.43070458194344e+001	(3.28713881682898e+001dB,2.15438040260225e+001°)
7.60378792641121e+001	(3.28871301935227e+001dB,2.10499556488380e+001°)
7.78090289988560e+001	(3.29020575990418e+001dB,2.05668919457877e+001°)
7.96214341106993e+001	(3.29162109195024e+001dB,2.00944346885679e+001°)
8.14760555608224e+001	(3.29296289194013e+001dB,1.96324029265442e+001°)
8.33738766940670e+001	(3.29423486369107e+001dB,1.91806135699173e+001°)
8.53159037603184e+001	(3.29544054304803e+001dB,1.87388819342055e+001°)
8.73031664480331e+001	(3.29658330277233e+001dB,1.83070222466027e+001°)
8.93367184301925e+001	(3.29766635761268e+001dB,1.78848481149773e+001°)
9.14176379229749e+001	(3.29869276951616e+001dB,1.74721729604604e+001°)
9.35470282574395e+001	(3.29966545293947e+001dB,1.70688104147296e+001°)
9.57260184645275e+001	(3.30058718022405e+001dB,1.66745746832209e+001°)
9.79557638736891e+001	(3.30146058700182e+001dB,1.62892808756139e+001°)
1.00237446725454e+002	(3.30228817760149e+001dB,1.59127453050128e+001°)
1.02572276798273e+002	(3.30307233042804e+001dB,1.55447857573122e+001°)
1.04961492049954e+002	(3.30381530329150e+001dB,1.51852217322794e+001°)
1.07406359274050e+002	(3.30451923866354e+001dB,1.48338746579088e+001°)
1.09908174771525e+002	(3.30518616884306e+001dB,1.44905680796139e+001°)
1.12468265038070e+002	(3.30581802101496e+001dB,1.41551278258201e+001°)
1.15087987467431e+002	(3.30641662218795e+001dB,1.38273821515021e+001°)
1.17768731071118e+002	(3.30698370400018e+001dB,1.35071618611834e+001°)
1.20511917214871e+002	(3.30752090738301e+001dB,1.31943004128805e+001°)
1.23319000372296e+002	(3.30802978707539e+001dB,1.28886340044295e+001°)
1.26191468896038e+002	(3.30851181598289e+001dB,1.25900016435841e+001°)
1.29130845806931e+002	(3.30896838937720e+001dB,1.22982452032194e+001°)
1.32138689601519e+002	(3.30940082893303e+001dB,1.20132094629200e+001°)
1.35216595078396e+002	(3.30981038660081e+001dB,1.17347421381685e+001°)
1.38366194183787e+002	(3.31019824831479e+001dB,1.14626938982924e+001°)
1.41589156876827e+002	(3.31056553753678e+001dB,1.11969183742612e+001°)
1.44887192014998e+002	(3.31091331863706e+001dB,1.09372721573679e+001°)
1.48262048260183e+002	(3.31124260011455e+001dB,1.06836147897629e+001°)
1.51715515005836e+002	(3.31155433765891e+001dB,1.04358087477521e+001°)
1.55249423325738e+002	(3.31184943705797e+001dB,1.01937194187077e+001°)
1.58865646944856e+002	(3.31212875695444e+001dB,9.95721507238497e+000°)
1.62566103232819e+002	(3.31239311145589e+001dB,9.72616682738174e+000°)
1.66352754220534e+002	(3.31264327260275e+001dB,9.50044861342233e+000°)
1.70227607640475e+002	(3.31287997269917e+001dB,9.27993713009723e+000°)
1.74192717991216e+002	(3.31310390651173e+001dB,9.06451180263900e+000°)
1.78250187626749e+002	(3.31331573334130e+001dB,8.85405473526703e+000°)
1.82402167871181e+002	(3.31351607897345e+001dB,8.64845066258851e+000°)
1.86650860159398e+002	(3.31370553751272e+001dB,8.44758689949901e+000°)
1.90998517204287e+002	(3.31388467310647e+001dB,8.25135328998432e+000°)
1.95447444191162e+002	(3.31405402156362e+001dB,8.05964215518552e+000°)
1.99999999999999e+002	(3.31421409187387e+001dB,7.87234824105171e+000°)
2.04658598456150e+002	(3.31436536763293e+001dB,7.68936866586838e+000°)
2.09425709610179e+002	(3.31450830837884e+001dB,7.51060286791588e+000°)
2.14303861047521e+002	(3.31464335084516e+001dB,7.33595255347993e+000°)
2.19295639228636e+002	(3.31477091013566e+001dB,7.16532164540578e+000°)
2.24403690860392e+002	(3.31489138082593e+001dB,6.99861623235906e+000°)
2.29630724299376e+002	(3.31500513799659e+001dB,6.83574451892972e+000°)
2.34979510987905e+002	(3.31511253820286e+001dB,6.67661677669021e+000°)
2.40452886923482e+002	(3.31521392038496e+001dB,6.52114529629661e+000°)
2.46053754162476e+002	(3.31530960672371e+001dB,6.36924434069952e+000°)
2.51785082358833e+002	(3.31539990344536e+001dB,6.22083009951242e+000°)
2.57649910338626e+002	(3.31548510157957e+001dB,6.07582064456808e+000°)
2.63651347711281e+002	(3.31556547767417e+001dB,5.93413588667703e+000°)
2.69792576518330e+002	(3.31564129447009e+001dB,5.79569753358947e+000°)
2.76076852920576e+002	(3.31571280153973e+001dB,5.66042904914849e+000°)
2.82507508924550e+002	(3.31578023589160e+001dB,5.52825561361371e+000°)
2.89087954149185e+002	(3.31584382254397e+001dB,5.39910408512433e+000°)
2.95821677633641e+002	(3.31590377507022e+001dB,5.27290296226477e+000°)
3.02712249687241e+002	(3.31596029611773e+001dB,5.14958234768990e+000°)
3.09763323782495e+002	(3.31601357790286e+001dB,5.02907391276261e+000°)
3.16978638492222e+002	(3.31606380268344e+001dB,4.91131086315446e+000°)
3.24362019471785e+002	(3.31611114321077e+001dB,4.79622790535793e+000°)
3.31917381487511e+002	(3.31615576316231e+001dB,4.68376121405830e+000°)
3.39648730492348e+002	(3.31619781755657e+001dB,4.57384840031385e+000°)
3.47560165749874e+002	(3.31623745315126e+001dB,4.46642848049423e+000°)
3.55655882007783e+002	(3.31627480882576e+001dB,4.36144184592871e+000°)
3.63940171721995e+002	(3.31631001594861e+001dB,4.25883023321854e+000°)
3.72417427332572e+002	(3.31634319873116e+001dB,4.15853669517027e+000°)
3.81092143592648e+002	(3.31637447456752e+001dB,4.06050557231059e+000°)
3.89968919951608e+002	(3.31640395436193e+001dB,3.96468246494640e+000°)
3.99052462993775e+002	(3.31643174284356e+001dB,3.87101420573706e+000°)
4.08347588933904e+002	(3.31645793886956e+001dB,3.77944883275023e+000°)
4.17859226170806e+002	(3.31648263571646e+001dB,3.68993556297509e+000°)
4.27592417900445e+002	(3.31650592136043e+001dB,3.60242476627124e+000°)
4.37552324789909e+002	(3.31652787874660e+001dB,3.51686793973399e+000°)
4.47744227713666e+002	(3.31654858604778e+001dB,3.43321768246056e+000°)
4.58173530553553e+002	(3.31656811691274e+001dB,3.35142767070394e+000°)
4.68845763063983e+002	(3.31658654070441e+001dB,3.27145263340406e+000°)
4.79766583803896e+002	(3.31660392272813e+001dB,3.19324832808802e+000°)
4.90941783137004e+002	(3.31662032445019e+001dB,3.11677151713376e+000°)
5.02377286301914e+002	(3.31663580370694e+001dB,3.04197994439235e+000°)
5.14079156553771e+002	(3.31665041490461e+001dB,2.96883231216592e+000°)
5.26053598379074e+002	(3.31666420921008e+001dB,2.89728825854066e+000°)
5.38306960785381e+002	(3.31667723473295e+001dB,2.82730833507293e+000°)
5.50845740667631e+002	(3.31668953669888e+001dB,2.75885398482905e+000°)
5.63676586252888e+002	(3.31670115761478e+001dB,2.69188752078025e+000°)
5.76806300625319e+002	(3.31671213742576e+001dB,2.62637210455237e+000°)
5.90241845333275e+002	(3.31672251366436e+001dB,2.56227172553233e+000°)
6.03990344080401e+002	(3.31673232159211e+001dB,2.49955118033261e+000°)
6.18059086502716e+002	(3.31674159433381e+001dB,2.43817605261411e+000°)
6.32455532033673e+002	(3.31675036300474e+001dB,2.37811269326917e+000°)
6.47187313859254e+002	(3.31675865683108e+001dB,2.31932820096452e+000°)
6.62262242965179e+002	(3.31676650326372e+001dB,2.26179040304511e+000°)
6.77688312278402e+002	(3.31677392808591e+001dB,2.20546783679778e+000°)
6.93473700905060e+002	(3.31678095551479e+001dB,2.15032973107506e+000°)
7.09626778467148e+002	(3.31678760829721e+001dB,2.09634598827674e+000°)
7.26156109540200e+002	(3.31679390780007e+001dB,2.04348716668898e+000°)
7.43070458194342e+002	(3.31679987409540e+001dB,1.99172446317744e+000°)
7.60378792641119e+002	(3.31680552604043e+001dB,1.94102969623264e+000°)
7.78090289988558e+002	(3.31681088135295e+001dB,1.89137528936409e+000°)
7.96214341106991e+002	(3.31681595668212e+001dB,1.84273425483946e+000°)
8.14760555608222e+002	(3.31682076767503e+001dB,1.79508017776500e+000°)
8.33738766940667e+002	(3.31682532903921e+001dB,1.74838720050250e+000°)
8.53159037603181e+002	(3.31682965460123e+001dB,1.70263000741791e+000°)
8.73031664480328e+002	(3.31683375736182e+001dB,1.65778380995654e+000°)
8.93367184301922e+002	(3.31683764954738e+001dB,1.61382433203926e+000°)
9.14176379229746e+002	(3.31684134265843e+001dB,1.57072779577384e+000°)
9.35470282574392e+002	(3.31684484751487e+001dB,1.52847090747460e+000°)
9.57260184645272e+002	(3.31684817429849e+001dB,1.48703084398639e+000°)
9.79557638736888e+002	(3.31685133259271e+001dB,1.44638523930237e+000°)
1.00237446725454e+003	(3.31685433141978e+001dB,1.40651217147353e+000°)
1.02572276798272e+003	(3.31685717927567e+001dB,1.36739014979943e+000°)
1.04961492049954e+003	(3.31685988416262e+001dB,1.32899810229531e+000°)
1.07406359274050e+003	(3.31686245361965e+001dB,1.29131536342752e+000°)
1.09908174771524e+003	(3.31686489475115e+001dB,1.25432166211138e+000°)
1.12468265038069e+003	(3.31686721425348e+001dB,1.21799710996319e+000°)
1.15087987467431e+003	(3.31686941844001e+001dB,1.18232218979972e+000°)
1.17768731071117e+003	(3.31687151326441e+001dB,1.14727774437818e+000°)
1.20511917214871e+003	(3.31687350434252e+001dB,1.11284496537058e+000°)
1.23319000372296e+003	(3.31687539697276e+001dB,1.07900538256285e+000°)
1.26191468896038e+003	(3.31687719615520e+001dB,1.04574085327496e+000°)
1.29130845806930e+003	(3.31687890660943e+001dB,1.01303355199258e+000°)
1.32138689601518e+003	(3.31688053279126e+001dB,9.80865960205161e-001°)
1.35216595078396e+003	(3.31688207890833e+001dB,9.49220856442367e-001°)
1.38366194183787e+003	(3.31688354893471e+001dB,9.18081306503718e-001°)
1.41589156876827e+003	(3.31688494662461e+001dB,8.87430653872971e-001°)
1.44887192014997e+003	(3.31688627552509e+001dB,8.57252510312780e-001°)
1.48262048260183e+003	(3.31688753898805e+001dB,8.27530746631738e-001°)
1.51715515005836e+003	(3.31688874018146e+001dB,7.98249483618714e-001°)
1.55249423325738e+003	(3.31688988209976e+001dB,7.69393083136779e-001°)
1.58865646944855e+003	(3.31689096757370e+001dB,7.40946139373158e-001°)
1.62566103232819e+003	(3.31689199927954e+001dB,7.12893470236823e-001°)
1.66352754220533e+003	(3.31689297974756e+001dB,6.85220108898843e-001°)
1.70227607640474e+003	(3.31689391137019e+001dB,6.57911295470877e-001°)
1.74192717991215e+003	(3.31689479640945e+001dB,6.30952468814426e-001°)
1.78250187626748e+003	(3.31689563700409e+001dB,6.04329258476527e-001°)
1.82402167871181e+003	(3.31689643517612e+001dB,5.78027476745633e-001°)
1.86650860159397e+003	(3.31689719283701e+001dB,5.52033110824444e-001°)
1.90998517204286e+003	(3.31689791179353e+001dB,5.26332315111091e-001°)
1.95447444191161e+003	(3.31689859375310e+001dB,5.00911403587383e-001°)
1.99999999999999e+003	(3.31689924032892e+001dB,4.75756842305340e-001°)
2.04658598456150e+003	(3.31689985304473e+001dB,4.50855241971716e-001°)
2.09425709610179e+003	(3.31690043333924e+001dB,4.26193350620286e-001°)
2.14303861047520e+003	(3.31690098257028e+001dB,4.01758046372300e-001°)
2.19295639228636e+003	(3.31690150201881e+001dB,3.77536330276777e-001°)
2.24403690860391e+003	(3.31690199289243e+001dB,3.53515319228119e-001°)
2.29630724299375e+003	(3.31690245632894e+001dB,3.29682238956061e-001°)
2.34979510987905e+003	(3.31690289339943e+001dB,3.06024417082600e-001°)
2.40452886923481e+003	(3.31690330511132e+001dB,2.82529276243399e-001°)
2.46053754162475e+003	(3.31690369241116e+001dB,2.59184327268387e-001°)
2.51785082358832e+003	(3.31690405618720e+001dB,2.35977162416150e-001°)
2.57649910338625e+003	(3.31690439727187e+001dB,2.12895448660290e-001°)
2.63651347711280e+003	(3.31690471644398e+001dB,1.89926921022966e-001°)
2.69792576518329e+003	(3.31690501443089e+001dB,1.67059375948400e-001°)
2.76076852920575e+003	(3.31690529191043e+001dB,1.44280664719012e-001°)
2.82507508924549e+003	(3.31690554951272e+001dB,1.21578686903181e-001°)
2.89087954149184e+003	(3.31690578782185e+001dB,9.89413838342407e-002°)
2.95821677633640e+003	(3.31690600737745e+001dB,7.63567321182121e-002°)
3.02712249687240e+003	(3.31690620867607e+001dB,5.38127371613655e-002°)
3.09763323782494e+003	(3.31690639217254e+001dB,3.12974267198860e-002°)
3.16978638492221e+003	(3.31690655828114e+001dB,8.79884446314394e-003°)
3.24362019471784e+003	(3.31690670737669e+001dB,-1.36949564509628e-002°)
3.31917381487510e+003	(3.31690683979550e+001dB,-3.61959197936562e-002°)
3.39648730492347e+003	(3.31690695583634e+001dB,-5.87159926777617e-002°)
3.47560165749873e+003	(3.31690705576110e+001dB,-8.12671319702650e-002°)
3.55655882007782e+003	(3.31690713979557e+001dB,-1.03861310710148e-001°)
3.63940171721994e+003	(3.31690720813000e+001dB,-1.26510524530820e-001°)
3.72417427332571e+003	(3.31690726091960e+001dB,-1.49226798095792e-001°)
3.81092143592647e+003	(3.31690729828498e+001dB,-1.72022191547511e-001°)
3.89968919951606e+003	(3.31690732031242e+001dB,-1.94908806976285e-001°)
3.99052462993773e+003	(3.31690732705418e+001dB,-2.17898794910191e-001°)
4.08347588933903e+003	(3.31690731852860e+001dB,-2.41004360832706e-001°)
4.17859226170805e+003	(3.31690729472023e+001dB,-2.64237771727680e-001°)
4.27592417900444e+003	(3.31690725557975e+001dB,-2.87611362660542e-001°)
4.37552324789908e+003	(3.31690720102394e+001dB,-3.11137543395292e-001°)
4.47744227713665e+003	(3.31690713093545e+001dB,-3.34828805056080e-001°)
4.58173530553552e+003	(3.31690704516257e+001dB,-3.58697726828247e-001°)
4.68845763063981e+003	(3.31690694351886e+001dB,-3.82756982714333e-001°)
4.79766583803895e+003	(3.31690682578275e+001dB,-4.07019348340918e-001°)
4.90941783137003e+003	(3.31690669169696e+001dB,-4.31497707822778e-001°)
5.02377286301913e+003	(3.31690654096796e+001dB,-4.56205060687998e-001°)
5.14079156553769e+003	(3.31690637326521e+001dB,-4.81154528869789e-001°)
5.26053598379073e+003	(3.31690618822039e+001dB,-5.06359363766597e-001°)
5.38306960785379e+003	(3.31690598542656e+001dB,-5.31832953377268e-001°)
5.50845740667629e+003	(3.31690576443706e+001dB,-5.57588829512717e-001°)
5.63676586252887e+003	(3.31690552476453e+001dB,-5.83640675091886e-001°)
5.76806300625317e+003	(3.31690526587968e+001dB,-6.10002331523928e-001°)
5.90241845333273e+003	(3.31690498720999e+001dB,-6.36687806181002e-001°)
6.03990344080399e+003	(3.31690468813827e+001dB,-6.63711279967052e-001°)
6.18059086502713e+003	(3.31690436800121e+001dB,-6.91087114990411e-001°)
6.32455532033671e+003	(3.31690402608761e+001dB,-7.18829862337082e-001°)
6.47187313859252e+003	(3.31690366163671e+001dB,-7.46954269957492e-001°)
6.62262242965177e+003	(3.31690327383621e+001dB,-7.75475290668378e-001°)
6.77688312278400e+003	(3.31690286182026e+001dB,-8.04408090274027e-001°)
6.93473700905058e+003	(3.31690242466720e+001dB,-8.33768055813651e-001°)
7.09626778467146e+003	(3.31690196139725e+001dB,-8.63570803940328e-001°)
7.26156109540197e+003	(3.31690147096997e+001dB,-8.93832189434609e-001°)
7.43070458194339e+003	(3.31690095228158e+001dB,-9.24568313862020e-001°)
7.60378792641117e+003	(3.31690040416202e+001dB,-9.55795534378122e-001°)
7.78090289988555e+003	(3.31689982537198e+001dB,-9.87530472685879e-001°)
7.96214341106988e+003	(3.31689921459955e+001dB,-1.01979002415493e+000°)
8.14760555608219e+003	(3.31689857045674e+001dB,-1.05259136710418e+000°)
8.33738766940664e+003	(3.31689789147576e+001dB,-1.08595197225924e+000°)
8.53159037603179e+003	(3.31689717610504e+001dB,-1.11988961238798e+000°)
8.73031664480325e+003	(3.31689642270503e+001dB,-1.15442237212290e+000°)
8.93367184301919e+003	(3.31689562954366e+001dB,-1.18956865797118e+000°)
9.14176379229743e+003	(3.31689479479153e+001dB,-1.22534720853742e+000°)
9.35470282574389e+003	(3.31689391651684e+001dB,-1.26177710493732e+000°)
9.57260184645269e+003	(3.31689299267984e+001dB,-1.29887778143986e+000°)
9.79557638736884e+003	(3.31689202112714e+001dB,-1.33666903632914e+000°)
1.00237446725454e+004	(3.31689099958539e+001dB,-1.37517104299307e+000°)
1.02572276798272e+004	(3.31688992565472e+001dB,-1.41440436126371e+000°)
1.04961492049954e+004	(3.31688879680171e+001dB,-1.45438994899022e+000°)
1.07406359274050e+004	(3.31688761035182e+001dB,-1.49514917388844e+000°)
1.09908174771524e+004	(3.31688636348138e+001dB,-1.53670382564400e+000°)
1.12468265038069e+004	(3.31688505320903e+001dB,-1.57907612830227e+000°)
1.15087987467430e+004	(3.31688367638654e+001dB,-1.62228875294006e+000°)
1.17768731071117e+004	(3.31688222968905e+001dB,-1.66636483064346e+000°)
1.20511917214871e+004	(3.31688070960461e+001dB,-1.71132796578953e+000°)
1.23319000372295e+004	(3.31687911242302e+001dB,-1.75720224965066e+000°)
