Freq.	V(vout)
Step Information: V=15.625m  (Run: 1/7)
2.00000000000000e+001	(-7.19146267249047e+000dB,7.18936794475390e+001°)
2.04658598456151e+001	(-7.01014031911768e+000dB,7.10003119892817e+001°)
2.09425709610180e+001	(-6.83227703790834e+000dB,7.00978803439961e+001°)
2.14303861047521e+001	(-6.65792900721803e+000dB,6.91870603868453e+001°)
2.19295639228637e+001	(-6.48714698451101e+000dB,6.82685441478428e+001°)
2.24403690860393e+001	(-6.31997618579921e+000dB,6.73430376319150e+001°)
2.29630724299377e+001	(-6.15645618828484e+000dB,6.64112585961797e+001°)
2.34979510987906e+001	(-5.99662085657811e+000dB,6.54739342962643e+001°)
2.40452886923483e+001	(-5.84049829273315e+000dB,6.45317992137165e+001°)
2.46053754162476e+001	(-5.68811081015443e+000dB,6.35855927765118e+001°)
2.51785082358833e+001	(-5.53947493132330e+000dB,6.26360570847834e+001°)
2.57649910338627e+001	(-5.39460140909556e+000dB,6.16839346536509e+001°)
2.63651347711281e+001	(-5.25349527119932e+000dB,6.07299661848933e+001°)
2.69792576518331e+001	(-5.11615588740981e+000dB,5.97748883789066e+001°)
2.76076852920577e+001	(-4.98257705872879e+000dB,5.88194317979772e+001°)
2.82507508924551e+001	(-4.85274712777329e+000dB,5.78643187914848e+001°)
2.89087954149185e+001	(-4.72664910944217e+000dB,5.69102614930789e+001°)
2.95821677633641e+001	(-4.60426084081540e+000dB,5.59579598992901e+001°)
3.02712249687242e+001	(-4.48555514912839e+000dB,5.50081000383488e+001°)
3.09763323782496e+001	(-4.37050003656019e+000dB,5.40613522372515e+001°)
3.16978638492223e+001	(-4.25905888049509e+000dB,5.31183694943422e+001°)
3.24362019471786e+001	(-4.15119064783204e+000dB,5.21797859638402e+001°)
3.31917381487512e+001	(-4.04685012185259e+000dB,5.12462155578687e+001°)
3.39648730492349e+001	(-3.94598814010649e+000dB,5.03182506706551e+001°)
3.47560165749875e+001	(-3.84855184173936e+000dB,4.93964610286561e+001°)
3.55655882007784e+001	(-3.75448492264590e+000dB,4.84813926694018e+001°)
3.63940171721997e+001	(-3.66372789684004e+000dB,4.75735670509614e+001°)
3.72417427332573e+001	(-3.57621836241000e+000dB,4.66734802929443e+001°)
3.81092143592649e+001	(-3.49189127046246e+000dB,4.57816025490844e+001°)
3.89968919951609e+001	(-3.41067919546304e+000dB,4.48983775104952e+001°)
3.99052462993776e+001	(-3.33251260543362e+000dB,4.40242220378507e+001°)
4.08347588933906e+001	(-3.25732013051895e+000dB,4.31595259199017e+001°)
4.17859226170808e+001	(-3.18502882847402e+000dB,4.23046517549054e+001°)
4.27592417900446e+001	(-3.11556444572802e+000dB,4.14599349508580e+001°)
4.37552324789910e+001	(-3.04885167272752e+000dB,4.06256838396685e+001°)
4.47744227713668e+001	(-2.98481439238075e+000dB,3.98021798998401e+001°)
4.58173530553554e+001	(-2.92337592050035e+000dB,3.89896780816266e+001°)
4.68845763063984e+001	(-2.86445923725219e+000dB,3.81884072281550e+001°)
4.79766583803898e+001	(-2.80798720873805e+000dB,3.73985705856158e+001°)
4.90941783137006e+001	(-2.75388279792260e+000dB,3.66203463952350e+001°)
5.02377286301916e+001	(-2.70206926426946e+000dB,3.58538885595571e+001°)
5.14079156553772e+001	(-2.65247035152394e+000dB,3.50993273753154e+001°)
5.26053598379076e+001	(-2.60501046323146e+000dB,3.43567703251314e+001°)
5.38306960785383e+001	(-2.55961482567461e+000dB,3.36263029202311e+001°)
5.50845740667633e+001	(-2.51620963802704e+000dB,3.29079895864218e+001°)
5.63676586252890e+001	(-2.47472220962499e+000dB,3.22018745856936e+001°)
5.76806300625321e+001	(-2.43508108437927e+000dB,3.15079829660233e+001°)
5.90241845333277e+001	(-2.39721615241300e+000dB,3.08263215321589e+001°)
6.03990344080403e+001	(-2.36105874913113e+000dB,3.01568798305070e+001°)
6.18059086502718e+001	(-2.32654174199438e+000dB,2.94996311415754e+001°)
6.32455532033675e+001	(-2.29359960534500e+000dB,2.88545334738088e+001°)
6.47187313859256e+001	(-2.26216848369370e+000dB,2.82215305530748e+001°)
6.62262242965182e+001	(-2.23218624395540e+000dB,2.76005528025324e+001°)
6.77688312278404e+001	(-2.20359251713510e+000dB,2.69915183080340e+001°)
6.93473700905062e+001	(-2.17632873003302e+000dB,2.63943337647252e+001°)
7.09626778467150e+001	(-2.15033812755760e+000dB,2.58088954009758e+001°)
7.26156109540202e+001	(-2.12556578626201e+000dB,2.52350898762577e+001°)
7.43070458194344e+001	(-2.10195861972189e+000dB,2.46727951500432e+001°)
7.60378792641121e+001	(-2.07946537640454e+000dB,2.41218813192883e+001°)
7.78090289988560e+001	(-2.05803663065426e+000dB,2.35822114224763e+001°)
7.96214341106993e+001	(-2.03762476743051e+000dB,2.30536422086403e+001°)
8.14760555608224e+001	(-2.01818396141736e+000dB,2.25360248701732e+001°)
8.33738766940670e+001	(-1.99967015111226e+000dB,2.20292057386120e+001°)
8.53159037603184e+001	(-1.98204100847302e+000dB,2.15330269429154e+001°)
8.73031664480331e+001	(-1.96525590468914e+000dB,2.10473270300825e+001°)
8.93367184301925e+001	(-1.94927587261132e+000dB,2.05719415482337e+001°)
9.14176379229749e+001	(-1.93406356634392e+000dB,2.01067035925309e+001°)
9.35470282574395e+001	(-1.91958321847820e+000dB,1.96514443145414e+001°)
9.57260184645275e+001	(-1.90580059541359e+000dB,1.92059933958409e+001°)
9.79557638736891e+001	(-1.89268295117118e+000dB,1.87701794868106e+001°)
1.00237446725454e+002	(-1.88019898009244e+000dB,1.83438306117405e+001°)
1.02572276798273e+002	(-1.86831876876158e+000dB,1.79267745414417e+001°)
1.04961492049954e+002	(-1.85701374747508e+000dB,1.75188391346794e+001°)
1.07406359274050e+002	(-1.84625664153831e+000dB,1.71198526497938e+001°)
1.09908174771525e+002	(-1.83602142265816e+000dB,1.67296440279385e+001°)
1.12468265038070e+002	(-1.82628326064648e+000dB,1.63480431493792e+001°)
1.15087987467431e+002	(-1.81701847564441e+000dB,1.59748810643266e+001°)
1.17768731071118e+002	(-1.80820449104721e+000dB,1.56099901997749e+001°)
1.20511917214871e+002	(-1.79981978727213e+000dB,1.52532045437965e+001°)
1.23319000372296e+002	(-1.79184385651077e+000dB,1.49043598087385e+001°)
1.26191468896038e+002	(-1.78425715857288e+000dB,1.45632935747255e+001°)
1.29130845806931e+002	(-1.77704107790689e+000dB,1.42298454148364e+001°)
1.32138689601519e+002	(-1.77017788188381e+000dB,1.39038570032900e+001°)
1.35216595078396e+002	(-1.76365068039197e+000dB,1.35851722079143e+001°)
1.38366194183787e+002	(-1.75744338679526e+000dB,1.32736371681329e+001°)
1.41589156876827e+002	(-1.75154068027996e+000dB,1.29691003596425e+001°)
1.44887192014998e+002	(-1.74592796961388e+000dB,1.26714126469037e+001°)
1.48262048260183e+002	(-1.74059135833035e+000dB,1.23804273245127e+001°)
1.51715515005836e+002	(-1.73551761133043e+000dB,1.20960001484598e+001°)
1.55249423325738e+002	(-1.73069412290342e+000dB,1.18179893582288e+001°)
1.58865646944856e+002	(-1.72610888614602e+000dB,1.15462556906354e+001°)
1.62566103232819e+002	(-1.72175046376324e+000dB,1.12806623862463e+001°)
1.66352754220534e+002	(-1.71760796022238e+000dB,1.10210751891683e+001°)
1.70227607640475e+002	(-1.71367099523143e+000dB,1.07673623409438e+001°)
1.74192717991216e+002	(-1.70992967850648e+000dB,1.05193945692403e+001°)
1.78250187626749e+002	(-1.70637458578873e+000dB,1.02770450719677e+001°)
1.82402167871181e+002	(-1.70299673607499e+000dB,1.00401894974166e+001°)
1.86650860159398e+002	(-1.69978757001220e+000dB,9.80870592095703e+000°)
1.90998517204287e+002	(-1.69673892941638e+000dB,9.58247481880040e+000°)
1.95447444191162e+002	(-1.69384303787027e+000dB,9.36137903928036e+000°)
1.99999999999999e+002	(-1.69109248234732e+000dB,9.14530377206730e+000°)
2.04658598456150e+002	(-1.68848019581969e+000dB,8.93413651569584e+000°)
2.09425709610179e+002	(-1.68599944080235e+000dB,8.72776704374535e+000°)
2.14303861047521e+002	(-1.68364379378237e+000dB,8.52608736997643e+000°)
2.19295639228636e+002	(-1.68140713048613e+000dB,8.32899171269503e+000°)
2.24403690860392e+002	(-1.67928361194594e+000dB,8.13637645858611e+000°)
2.29630724299376e+002	(-1.67726767130799e+000dB,7.94814012622122e+000°)
2.34979510987905e+002	(-1.67535400134607e+000dB,7.76418332942445e+000°)
2.40452886923482e+002	(-1.67353754263612e+000dB,7.58440874065130e+000°)
2.46053754162476e+002	(-1.67181347234892e+000dB,7.40872105450979e+000°)
2.51785082358833e+002	(-1.67017719362107e+000dB,7.23702695153218e+000°)
2.57649910338626e+002	(-1.66862432546495e+000dB,7.06923506228444e+000°)
2.63651347711281e+002	(-1.66715069318768e+000dB,6.90525593188434e+000°)
2.69792576518330e+002	(-1.66575231927581e+000dB,6.74500198497740e+000°)
2.76076852920576e+002	(-1.66442541472281e+000dB,6.58838749121088e+000°)
2.82507508924550e+002	(-1.66316637076160e+000dB,6.43532853122857e+000°)
2.89087954149185e+002	(-1.66197175097883e+000dB,6.28574296319983e+000°)
2.95821677633641e+002	(-1.66083828378606e+000dB,6.13955038988870e+000°)
3.02712249687241e+002	(-1.65976285522128e+000dB,5.99667212625698e+000°)
3.09763323782495e+002	(-1.65874250205751e+000dB,5.85703116759074e+000°)
3.16978638492222e+002	(-1.65777440520814e+000dB,5.72055215813864e+000°)
3.24362019471785e+002	(-1.65685588339778e+000dB,5.58716136023835e+000°)
3.31917381487511e+002	(-1.65598438709184e+000dB,5.45678662391317e+000°)
3.39648730492348e+002	(-1.65515749267074e+000dB,5.32935735691618e+000°)
3.47560165749874e+002	(-1.65437289682741e+000dB,5.20480449519625e+000°)
3.55655882007783e+002	(-1.65362841118428e+000dB,5.08306047376524e+000°)
3.63940171721995e+002	(-1.65292195711906e+000dB,4.96405919794419e+000°)
3.72417427332572e+002	(-1.65225156078576e+000dB,4.84773601496684e+000°)
3.81092143592648e+002	(-1.65161534832411e+000dB,4.73402768592175e+000°)
3.89968919951608e+002	(-1.65101154125059e+000dB,4.62287235801655e+000°)
3.99052462993775e+002	(-1.65043845203063e+000dB,4.51420953715158e+000°)
4.08347588933904e+002	(-1.64989447981089e+000dB,4.40798006078659e+000°)
4.17859226170806e+002	(-1.64937810632357e+000dB,4.30412607109561e+000°)
4.27592417900445e+002	(-1.64888789194313e+000dB,4.20259098839885e+000°)
4.37552324789909e+002	(-1.64842247190360e+000dB,4.10331948486954e+000°)
4.47744227713666e+002	(-1.64798055266149e+000dB,4.00625745851066e+000°)
4.58173530553553e+002	(-1.64756090840781e+000dB,3.91135200740192e+000°)
4.68845763063983e+002	(-1.64716237771826e+000dB,3.81855140421680e+000°)
4.79766583803896e+002	(-1.64678386034904e+000dB,3.72780507101328e+000°)
4.90941783137004e+002	(-1.64642431416038e+000dB,3.63906355430068e+000°)
5.02377286301914e+002	(-1.64608275217421e+000dB,3.55227850038765e+000°)
5.14079156553771e+002	(-1.64575823976204e+000dB,3.46740263101714e+000°)
5.26053598379074e+002	(-1.64544989195260e+000dB,3.38438971929483e+000°)
5.38306960785381e+002	(-1.64515687086309e+000dB,3.30319456591607e+000°)
5.50845740667631e+002	(-1.64487838324725e+000dB,3.22377297569995e+000°)
5.63676586252888e+002	(-1.64461367815440e+000dB,3.14608173443619e+000°)
5.76806300625319e+002	(-1.64436204470324e+000dB,3.07007858605234e+000°)
5.90241845333275e+002	(-1.64412280995669e+000dB,2.99572221010628e+000°)
6.03990344080401e+002	(-1.64389533690052e+000dB,2.92297219961202e+000°)
6.18059086502716e+002	(-1.64367902252527e+000dB,2.85178903920305e+000°)
6.32455532033673e+002	(-1.64347329599717e+000dB,2.78213408363862e+000°)
6.47187313859254e+002	(-1.64327761692567e+000dB,2.71396953665736e+000°)
6.62262242965179e+002	(-1.64309147371623e+000dB,2.64725843018213e+000°)
6.77688312278402e+002	(-1.64291438200835e+000dB,2.58196460387840e+000°)
6.93473700905060e+002	(-1.64274588319676e+000dB,2.51805268506981e+000°)
7.09626778467148e+002	(-1.64258554302580e+000dB,2.45548806901067e+000°)
7.26156109540200e+002	(-1.64243295026197e+000dB,2.39423689951765e+000°)
7.43070458194342e+002	(-1.64228771543697e+000dB,2.33426604996036e+000°)
7.60378792641119e+002	(-1.64214946965497e+000dB,2.27554310460920e+000°)
7.78090289988558e+002	(-1.64201786346863e+000dB,2.21803634034115e+000°)
7.96214341106991e+002	(-1.64189256581284e+000dB,2.16171470869948e+000°)
8.14760555608222e+002	(-1.64177326300041e+000dB,2.10654781830660e+000°)
8.33738766940667e+002	(-1.64165965776884e+000dB,2.05250591762510e+000°)
8.53159037603181e+002	(-1.64155146838414e+000dB,1.99955987806546e+000°)
8.73031664480328e+002	(-1.64144842779085e+000dB,1.94768117743467e+000°)
8.93367184301922e+002	(-1.64135028281214e+000dB,1.89684188372116e+000°)
9.14176379229746e+002	(-1.64125679339365e+000dB,1.84701463921306e+000°)
9.35470282574392e+002	(-1.64116773188835e+000dB,1.79817264494092e+000°)
9.57260184645272e+002	(-1.64108288238522e+000dB,1.75028964544386e+000°)
9.79557638736888e+002	(-1.64100204007113e+000dB,1.70333991384789e+000°)
1.00237446725454e+003	(-1.64092501063362e+000dB,1.65729823725546e+000°)
1.02572276798272e+003	(-1.64085160969347e+000dB,1.61213990243576e+000°)
1.04961492049954e+003	(-1.64078166227035e+000dB,1.56784068181150e+000°)
1.07406359274050e+003	(-1.64071500228100e+000dB,1.52437681973462e+000°)
1.09908174771524e+003	(-1.64065147206280e+000dB,1.48172501904437e+000°)
1.12468265038069e+003	(-1.64059092192525e+000dB,1.43986242790103e+000°)
1.15087987467431e+003	(-1.64053320972691e+000dB,1.39876662688726e+000°)
1.17768731071117e+003	(-1.64047820047917e+000dB,1.35841561637175e+000°)
1.20511917214871e+003	(-1.64042576596379e+000dB,1.31878780412711e+000°)
1.23319000372296e+003	(-1.64037578438319e+000dB,1.27986199319434e+000°)
1.26191468896038e+003	(-1.64032814002247e+000dB,1.24161736998915e+000°)
1.29130845806930e+003	(-1.64028272293268e+000dB,1.20403349264015e+000°)
1.32138689601518e+003	(-1.64023942863265e+000dB,1.16709027955457e+000°)
1.35216595078396e+003	(-1.64019815782649e+000dB,1.13076799820312e+000°)
1.38366194183787e+003	(-1.64015881613657e+000dB,1.09504725411784e+000°)
1.41589156876827e+003	(-1.64012131385410e+000dB,1.05990898009597e+000°)
1.44887192014997e+003	(-1.64008556569768e+000dB,1.02533442560296e+000°)
1.48262048260183e+003	(-1.64005149059318e+000dB,9.91305146368894e-001°)
1.51715515005836e+003	(-1.64001901145866e+000dB,9.57802994170923e-001°)
1.55249423325738e+003	(-1.63998805500559e+000dB,9.24810106795039e-001°)
1.58865646944855e+003	(-1.63995855154746e+000dB,8.92308898172835e-001°)
1.62566103232819e+003	(-1.63993043482317e+000dB,8.60282048685422e-001°)
1.66352754220533e+003	(-1.63990364182803e+000dB,8.28712495626956e-001°)
1.70227607640474e+003	(-1.63987811264974e+000dB,7.97583423826268e-001°)
1.74192717991215e+003	(-1.63985379032269e+000dB,7.66878256416851e-001°)
1.78250187626748e+003	(-1.63983062068157e+000dB,7.36580645749722e-001°)
1.82402167871181e+003	(-1.63980855222663e+000dB,7.06674464445278e-001°)
1.86650860159397e+003	(-1.63978753599633e+000dB,6.77143796577847e-001°)
1.90998517204286e+003	(-1.63976752544645e+000dB,6.47972928986396e-001°)
1.95447444191161e+003	(-1.63974847633564e+000dB,6.19146342707619e-001°)
1.99999999999999e+003	(-1.63973034661664e+000dB,5.90648704523774e-001°)
2.04658598456150e+003	(-1.63971309633498e+000dB,5.62464858623393e-001°)
2.09425709610179e+003	(-1.63969668752972e+000dB,5.34579818367324e-001°)
2.14303861047520e+003	(-1.63968108414643e+000dB,5.06978758153778e-001°)
2.19295639228636e+003	(-1.63966625194701e+000dB,4.79647005382623e-001°)
2.24403690860391e+003	(-1.63965215842757e+000dB,4.52570032507483e-001°)
2.29630724299375e+003	(-1.63963877274319e+000dB,4.25733449175322e-001°)
2.34979510987905e+003	(-1.63962606563419e+000dB,3.99122994447457e-001°)
2.40452886923481e+003	(-1.63961400935613e+000dB,3.72724529096762e-001°)
2.46053754162475e+003	(-1.63960257761505e+000dB,3.46524027978261e-001°)
2.51785082358832e+003	(-1.63959174550610e+000dB,3.20507572464843e-001°)
2.57649910338625e+003	(-1.63958148945413e+000dB,2.94661342947758e-001°)
2.63651347711280e+003	(-1.63957178716091e+000dB,2.68971611395914e-001°)
2.69792576518329e+003	(-1.63956261755128e+000dB,2.43424733966759e-001°)
2.76076852920575e+003	(-1.63955396072514e+000dB,2.18007143671356e-001°)
2.82507508924549e+003	(-1.63954579791247e+000dB,1.92705343080058e-001°)
2.89087954149184e+003	(-1.63953811142908e+000dB,1.67505897072423e-001°)
2.95821677633640e+003	(-1.63953088463536e+000dB,1.42395425623877e-001°)
3.02712249687240e+003	(-1.63952410189985e+000dB,1.17360596623398e-001°)
3.09763323782494e+003	(-1.63951774856267e+000dB,9.23881187217345e-002°)
3.16978638492221e+003	(-1.63951181090320e+000dB,6.74647342029995e-002°)
3.24362019471784e+003	(-1.63950627610664e+000dB,4.25772118766632e-002°)
3.31917381487510e+003	(-1.63950113223738e+000dB,1.77123399849459e-002°)
3.39648730492347e+003	(-1.63949636821134e+000dB,-7.14308087519863e-003°)
3.47560165749873e+003	(-1.63949197377002e+000dB,-3.20022448244605e-002°)
3.55655882007782e+003	(-1.63948793945986e+000dB,-5.68783477704994e-002°)
3.63940171721994e+003	(-1.63948425660751e+000dB,-8.17845944734294e-002°)
3.72417427332571e+003	(-1.63948091730320e+000dB,-1.06734205620029e-001°)
3.81092143592647e+003	(-1.63947791438385e+000dB,-1.31740424902715e-001°)
3.89968919951606e+003	(-1.63947524141337e+000dB,-1.56816526113371e-001°)
3.99052462993773e+003	(-1.63947289267332e+000dB,-1.81975820252494e-001°)
4.08347588933903e+003	(-1.63947086314551e+000dB,-2.07231662659569e-001°)
4.17859226170805e+003	(-1.63946914850567e+000dB,-2.32597460165559e-001°)
4.27592417900444e+003	(-1.63946774511076e+000dB,-2.58086678278860e-001°)
4.37552324789908e+003	(-1.63946664999276e+000dB,-2.83712848399547e-001°)
4.47744227713665e+003	(-1.63946586085184e+000dB,-3.09489575075431e-001°)
4.58173530553552e+003	(-1.63946537605263e+000dB,-3.35430543293128e-001°)
4.68845763063981e+003	(-1.63946519461880e+000dB,-3.61549525821605e-001°)
4.79766583803895e+003	(-1.63946531623467e+000dB,-3.87860390600855e-001°)
4.90941783137003e+003	(-1.63946574124285e+000dB,-4.14377108187453e-001°)
5.02377286301913e+003	(-1.63946647064591e+000dB,-4.41113759256442e-001°)
5.14079156553769e+003	(-1.63946750611049e+000dB,-4.68084542168277e-001°)
5.26053598379073e+003	(-1.63946884997072e+000dB,-4.95303780602092e-001°)
5.38306960785379e+003	(-1.63947050523471e+000dB,-5.22785931261907e-001°)
5.50845740667629e+003	(-1.63947247559226e+000dB,-5.50545591657618e-001°)
5.63676586252887e+003	(-1.63947476542482e+000dB,-5.78597507970396e-001°)
5.76806300625317e+003	(-1.63947737981488e+000dB,-6.06956583001311e-001°)
5.90241845333273e+003	(-1.63948032456112e+000dB,-6.35637884211955e-001°)
6.03990344080399e+003	(-1.63948360618981e+000dB,-6.64656651859822e-001°)
6.18059086502713e+003	(-1.63948723197345e+000dB,-6.94028307238681e-001°)
6.32455532033671e+003	(-1.63949120994834e+000dB,-7.23768461018722e-001°)
6.47187313859252e+003	(-1.63949554893405e+000dB,-7.53892921701289e-001°)
6.62262242965177e+003	(-1.63950025855554e+000dB,-7.84417704191101e-001°)
6.77688312278400e+003	(-1.63950534926619e+000dB,-8.15359038487504e-001°)
6.93473700905058e+003	(-1.63951083237697e+000dB,-8.46733378504756e-001°)
7.09626778467146e+003	(-1.63951672008011e+000dB,-8.78557411025219e-001°)
7.26156109540197e+003	(-1.63952302548431e+000dB,-9.10848064790881e-001°)
7.43070458194339e+003	(-1.63952976264512e+000dB,-9.43622519740697e-001°)
7.60378792641117e+003	(-1.63953694660060e+000dB,-9.76898216397935e-001°)
7.78090289988555e+003	(-1.63954459341053e+000dB,-1.01069286541548e+000°)
7.96214341106988e+003	(-1.63955272019657e+000dB,-1.04502445728345e+000°)
8.14760555608219e+003	(-1.63956134518740e+000dB,-1.07991127221151e+000°)
8.33738766940664e+003	(-1.63957048776422e+000dB,-1.11537189017872e+000°)
8.53159037603179e+003	(-1.63958016851262e+000dB,-1.15142520118013e+000°)
8.73031664480325e+003	(-1.63959040927317e+000dB,-1.18809041565446e+000°)
8.93367184301919e+003	(-1.63960123320396e+000dB,-1.22538707511341e+000°)
9.14176379229743e+003	(-1.63961266483717e+000dB,-1.26333506298418e+000°)
9.35470282574389e+003	(-1.63962473014648e+000dB,-1.30195461565110e+000°)
9.57260184645269e+003	(-1.63963745661670e+000dB,-1.34126633373812e+000°)
9.79557638736884e+003	(-1.63965087331721e+000dB,-1.38129119360742e+000°)
1.00237446725454e+004	(-1.63966501098123e+000dB,-1.42205055910439e+000°)
1.02572276798272e+004	(-1.63967990209226e+000dB,-1.46356619355647e+000°)
1.04961492049954e+004	(-1.63969558097036e+000dB,-1.50586027201334e+000°)
1.07406359274050e+004	(-1.63971208387039e+000dB,-1.54895539377458e+000°)
1.09908174771524e+004	(-1.63972944908422e+000dB,-1.59287459518304e+000°)
1.12468265038069e+004	(-1.63974771704823e+000dB,-1.63764136271085e+000°)
